
T32BC 000:046 SEGGER J-Link V6.10i Log File (0000ms, 0017ms total)
T32BC 000:046 DLL Compiled: Oct 25 2016 19:31:51 (0000ms, 0017ms total)
T32BC 000:046 Logging started @ 2019-03-20 16:59 (0000ms, 0017ms total)
T32BC 000:046 JLINK_SetWarnOutHandler(...) (0000ms, 0017ms total)
T32BC 000:046 JLINK_OpenEx(...)
Firmware: J-Link ARM V8 compiled Nov 28 2014 13:44:46
Hardware: V8.00
S/N: 99999993
Feature(s): RDI,FlashDL,FlashBP,JFlash,GDBFULLWEBSRV Webserver running on local port 19080 (0008ms, 0025ms total)
T32BC 000:046   returns O.K. (0008ms, 0025ms total)
T32BC 000:054 JLINK_SetErrorOutHandler(...) (0000ms, 0025ms total)
T32BC 000:054 JLINK_ExecCommand("ProjectFile = "D:\2019\hzrq\hzrqRedo\hzrq_bc95_prj\JLinkSettings.ini"", ...). Device "CORTEX-M0" selected.  returns 0x00 (0088ms, 0113ms total)
T32BC 000:144 JLINK_ExecCommand("Device = STM32L073RZTx", ...). Device "STM32L073RZ" selected.  returns 0x00 (0003ms, 0116ms total)
T32BC 000:147 JLINK_ExecCommand("DisableConnectionTimeout", ...).   returns 0x01 (0000ms, 0116ms total)
T32BC 000:147 JLINK_GetHardwareVersion()  returns 0x13880 (0000ms, 0116ms total)
T32BC 000:147 JLINK_GetDLLVersion()  returns 61009 (0000ms, 0116ms total)
T32BC 000:147 JLINK_GetFirmwareString(...) (0000ms, 0116ms total)
T32BC 000:151 JLINK_GetDLLVersion()  returns 61009 (0000ms, 0116ms total)
T32BC 000:151 JLINK_GetCompileDateTime() (0000ms, 0116ms total)
T32BC 000:153 JLINK_GetFirmwareString(...) (0000ms, 0116ms total)
T32BC 000:155 JLINK_GetHardwareVersion()  returns 0x13880 (0000ms, 0116ms total)
T32BC 000:163 JLINK_TIF_Select(JLINKARM_TIF_SWD)  returns 0x00 (0001ms, 0117ms total)
T32BC 000:164 JLINK_SetSpeed(1000) (0000ms, 0117ms total)
T32BC 000:164 JLINK_GetId() >0x108 TIF>Found SWD-DP with ID 0x0BC11477 >0x0D TIF> >0x28 TIF> >0x0D TIF> >0x28 TIF> >0x0D TIF> >0x28 TIF> >0x0D TIF> >0x28 TIF> >0x0D TIF> >0x21 TIF> >0x0D TIF> >0x28 TIF> >0x0D TIF> >0x28 TIF> >0x0D TIF> >0x28 TIF> >0x0D TIF> >0x21 TIF> >0x0D TIF> >0x21 TIF> >0x0D TIF> >0x28 TIF> >0x0D TIF> >0x21 TIF> >0x0D TIF> >0x21 TIF> >0x0D TIF> >0x28 TIF> >0x0D TIF> >0x28 TIF> >0x0D TIF> >0x28 TIF> >0x0D TIF> >0x21 TIF> >0x0D TIF> >0x21 TIF> >0x0D TIF> >0x28 TIF> >0x0D TIF>
 >0x28 TIF> >0x0D TIF> >0x28 TIF> >0x0D TIF> >0x28 TIF> >0x0D TIF> >0x28 TIF> >0x0D TIF> >0x21 TIF> >0x0D TIF> >0x21 TIF> >0x0D TIF> >0x28 TIF> >0x0D TIF> >0x21 TIF> >0x0D TIF> >0x21 TIF> >0x0D TIF> >0x28 TIF> >0x0D TIF> >0x28 TIF> >0x0D TIF> >0x28 TIF> >0x0D TIF> >0x21 TIF> >0x0D TIF> >0x21 TIF> >0x0D TIF> >0x28 TIF> >0x0D TIF> >0x28 TIF> >0x0D TIF> >0x28 TIF> >0x0D TIF> >0x21 TIF> >0x0D TIF> >0x21 TIF> >0x0D TIF> >0x28 TIF> >0x0D TIF> >0x28 TIF> >0x0D TIF> >0x28 TIF> >0x0D TIF> >0x21 TIF> >0x0D TIF>
 >0x21 TIF> >0x0D TIF> >0x28 TIF> >0x0D TIF> >0x21 TIF> >0x0D TIF> >0x21 TIF> >0x0D TIF> >0x28 TIF> >0x0D TIF> >0x21 TIF> >0x0D TIF> >0x21 TIF> >0x0D TIF> >0x28 TIF> >0x0D TIF> >0x21 TIF> >0x0D TIF> >0x21 TIF> >0x0D TIF> >0x28 TIF> >0x0D TIF> >0x21 TIF> >0x0D TIF> >0x21 TIF> >0x0D TIF> >0x28 TIF> >0x0D TIF> >0x21 TIF> >0x0D TIF> >0x21 TIF> >0x108 TIF>Found SWD-DP with ID 0x0BC11477 >0x0D TIF> >0x28 TIF> >0x0D TIF> >0x28 TIF> >0x0D TIF> >0x28 TIF> >0x0D TIF> >0x28 TIF> >0x0D TIF> >0x21 TIF> >0x0D TIF>
 >0x28 TIF> >0x0D TIF> >0x28 TIF> >0x0D TIF> >0x21 TIF> >0x0D TIF> >0x21 TIF> >0x0D TIF> >0x21 TIF>AP-IDR: 0x04770031, Type: AHB-AP >0x0D TIF> >0x28 TIF> >0x0D TIF> >0x28 TIF> >0x0D TIF> >0x28 TIF> >0x0D TIF> >0x21 TIF> >0x0D TIF> >0x21 TIF> >0x0D TIF> >0x28 TIF> >0x0D TIF> >0x21 TIF> >0x0D TIF> >0x21 TIF>Found Cortex-M0 r0p1, Little endian. -- CPU_ReadMem(4 bytes @ 0xE000EDF0) -- CPU_ReadMem(4 bytes @ 0xE0002000)FPUnit: 4 code (BP) slots and 0 literal slots -- CPU_ReadMem(4 bytes @ 0xE000EDFC)
 -- CPU_ReadMem(4 bytes @ 0xE0001000) -- CPU_WriteMem(4 bytes @ 0xE0001000)CoreSight components:ROMTbl 0 @ F0000000 -- CPU_ReadMem(16 bytes @ 0xF0000000) -- CPU_ReadMem(16 bytes @ 0xE00FFFF0) -- CPU_ReadMem(16 bytes @ 0xE00FFFE0)ROMTbl 0 [0]: F00FF000, CID: B105100D, PID: 000BB4C0 ROM TableROMTbl 1 @ E00FF000 -- CPU_ReadMem(16 bytes @ 0xE00FF000) -- CPU_ReadMem(16 bytes @ 0xE000EFF0) -- CPU_ReadMem(16 bytes @ 0xE000EFE0)ROMTbl 1 [0]: FFF0F000, CID: B105E00D, PID: 000BB008 SCS
 -- CPU_ReadMem(16 bytes @ 0xE0001FF0) -- CPU_ReadMem(16 bytes @ 0xE0001FE0)ROMTbl 1 [1]: FFF02000, CID: B105E00D, PID: 000BB00A DWT -- CPU_ReadMem(16 bytes @ 0xE0002FF0) -- CPU_ReadMem(16 bytes @ 0xE0002FE0)ROMTbl 1 [2]: FFF03000, CID: B105E00D, PID: 000BB00B FPB -- CPU is running -- CPU_WriteMem(4 bytes @ 0xE000EDF0) -- CPU is running -- CPU_WriteMem(4 bytes @ 0xE000EDFC) >0x35 TIF> -- CPU is running -- CPU_WriteMem(4 bytes @ 0xE000ED0C) -- CPU is running -- CPU_ReadMem(4 bytes @ 0xE000EDF0)
 -- CPU is running -- CPU_ReadMem(4 bytes @ 0xE000EDF0) -- CPU is running -- CPU_WriteMem(4 bytes @ 0xE000EDF0) -- CPU is running -- CPU_WriteMem(4 bytes @ 0xE000EDFC) -- CPU is running -- CPU_ReadMem(4 bytes @ 0xE000EDF0) -- CPU_WriteMem(4 bytes @ 0xE0002000) -- CPU_ReadMem(4 bytes @ 0xE000EDFC) -- CPU_ReadMem(4 bytes @ 0xE0001000) -- CPU_WriteMem(4 bytes @ 0xE0001000) -- CPU_WriteMem(20480 bytes @ 0x20000000) >0x0D TIF> >0x21 TIF>  returns 0x0BC11477 (0396ms, 0513ms total)
T32BC 000:561 JLINK_GetDLLVersion()  returns 61009 (0000ms, 0513ms total)
T32BC 000:561 JLINK_CORE_GetFound()  returns 0x60000FF (0000ms, 0513ms total)
T32BC 000:561 JLINK_GetDebugInfo(0x100) -- Value=0xF0000000  returns 0x00 (0000ms, 0513ms total)
T32BC 000:573 JLINK_GetDebugInfo(0x100) -- Value=0xF0000000  returns 0x00 (0000ms, 0513ms total)
T32BC 000:573 JLINK_GetDebugInfo(0x101) -- Value=0x00000000  returns 0x00 (0000ms, 0513ms total)
T32BC 000:573 JLINK_ReadMem (0xE0041FF0, 0x0010 Bytes, ...) -- CPU_ReadMem(16 bytes @ 0xE0041FF0) - Data: 00 00 00 00 00 00 00 00 00 00 00 00 00 00 00 00  returns 0x00 (0001ms, 0514ms total)
T32BC 000:574 JLINK_GetDebugInfo(0x102) -- Value=0x00000000  returns 0x00 (0000ms, 0514ms total)
T32BC 000:574 JLINK_GetDebugInfo(0x103) -- Value=0x00000000  returns 0x00 (0000ms, 0514ms total)
T32BC 000:574 JLINK_ReadMem (0xE0040FF0, 0x0010 Bytes, ...) -- CPU_ReadMem(16 bytes @ 0xE0040FF0) - Data: 00 00 00 00 00 00 00 00 00 00 00 00 00 00 00 00  returns 0x00 (0001ms, 0515ms total)
T32BC 000:575 JLINK_GetDebugInfo(0x104) -- Value=0xE0000000  returns 0x00 (0000ms, 0515ms total)
T32BC 000:575 JLINK_GetDebugInfo(0x105) -- Value=0xE0001000  returns 0x00 (0000ms, 0515ms total)
T32BC 000:575 JLINK_GetDebugInfo(0x106) -- Value=0xE0002000  returns 0x00 (0000ms, 0515ms total)
T32BC 000:575 JLINK_GetDebugInfo(0x107) -- Value=0xE000E000  returns 0x00 (0000ms, 0515ms total)
T32BC 000:575 JLINK_GetDebugInfo(0x10C) -- Value=0xE000EDF0  returns 0x00 (0000ms, 0515ms total)
T32BC 000:575 JLINK_ReadMemU32(0xE000ED00, 0x0001 Items, ...) -- CPU_ReadMem(4 bytes @ 0xE000ED00) - Data: 01 C6 0C 41  returns 0x01 (0001ms, 0516ms total)
T32BC 000:576 JLINK_SetResetType(JLINKARM_RESET_TYPE_NORMAL)  returns JLINKARM_RESET_TYPE_NORMAL (0000ms, 0516ms total)
T32BC 000:576 JLINK_Reset() -- CPU_ReadMem(4 bytes @ 0x20000000) -- CPU_WriteMem(4 bytes @ 0x20000000) -- CPU_WriteMem(4 bytes @ 0xE000EDF0) -- CPU_WriteMem(4 bytes @ 0xE000EDFC) >0x35 TIF> -- CPU_WriteMem(4 bytes @ 0xE000ED0C) -- CPU_ReadMem(4 bytes @ 0xE000EDF0) -- CPU_ReadMem(4 bytes @ 0xE000EDF0) -- CPU_WriteMem(4 bytes @ 0xE000EDF0) -- CPU_WriteMem(4 bytes @ 0xE000EDFC) -- CPU is running -- CPU_ReadMem(4 bytes @ 0xE000EDF0) -- CPU_WriteMem(4 bytes @ 0xE0002000) -- CPU_ReadMem(4 bytes @ 0xE000EDFC)
 -- CPU_ReadMem(4 bytes @ 0xE0001000) -- CPU_WriteMem(4 bytes @ 0xE0001000) (0024ms, 0540ms total)
T32BC 000:600 JLINK_Halt()  returns 0x00 (0000ms, 0540ms total)
T32BC 000:600 JLINK_IsHalted()  returns TRUE (0000ms, 0540ms total)
T32BC 000:600 JLINK_ReadMemU32(0xE000EDF0, 0x0001 Items, ...) -- CPU_ReadMem(4 bytes @ 0xE000EDF0) - Data: 03 00 03 01  returns 0x01 (0001ms, 0541ms total)
T32BC 000:601 JLINK_WriteU32(0xE000EDF0, 0xA05F0003) -- CPU_WriteMem(4 bytes @ 0xE000EDF0)  returns 0x00 (0000ms, 0541ms total)
T32BC 000:601 JLINK_WriteU32(0xE000EDFC, 0x01000000) -- CPU_WriteMem(4 bytes @ 0xE000EDFC)  returns 0x00 (0001ms, 0542ms total)
T32BC 000:634 JLINK_GetHWStatus(...)  returns 0x00 (0001ms, 0543ms total)
T32BC 000:653 JLINK_GetNumBPUnits(Type = 0xFFFFFF00)  returns 0x04 (0000ms, 0543ms total)
T32BC 000:653 JLINK_GetNumBPUnits(Type = 0xF0)  returns 0x2000 (0000ms, 0543ms total)
T32BC 000:653 JLINK_GetNumWPUnits()  returns 0x02 (0000ms, 0543ms total)
T32BC 000:666 JLINK_GetSpeed()  returns 0x3E8 (0000ms, 0543ms total)
T32BC 000:673 JLINK_ReadMemU32(0xE000E004, 0x0001 Items, ...) -- CPU_ReadMem(4 bytes @ 0xE000E004) - Data: 00 00 00 00  returns 0x01 (0001ms, 0544ms total)
T32BC 000:674 JLINK_Halt()  returns 0x00 (0000ms, 0544ms total)
T32BC 000:674 JLINK_IsHalted()  returns TRUE (0000ms, 0544ms total)
T32BC 000:680 JLINK_WriteMem(0x20000000, 0x0140 Bytes, ...) - Data: 00 BE 0A E0 0D 78 2D 06 68 40 08 24 40 00 00 D3 ... -- CPU_WriteMem(320 bytes @ 0x20000000)  returns 0x140 (0005ms, 0549ms total)
T32BC 000:685 JLINK_WriteReg(R0, 0x08000000)  returns 0x00 (0000ms, 0549ms total)
T32BC 000:685 JLINK_WriteReg(R1, 0x00B71B00)  returns 0x00 (0000ms, 0549ms total)
T32BC 000:685 JLINK_WriteReg(R2, 0x00000001)  returns 0x00 (0000ms, 0549ms total)
T32BC 000:685 JLINK_WriteReg(R3, 0x00000000)  returns 0x00 (0000ms, 0549ms total)
T32BC 000:685 JLINK_WriteReg(R4, 0x00000000)  returns 0x00 (0000ms, 0549ms total)
T32BC 000:685 JLINK_WriteReg(R5, 0x00000000)  returns 0x00 (0000ms, 0549ms total)
T32BC 000:685 JLINK_WriteReg(R6, 0x00000000)  returns 0x00 (0000ms, 0549ms total)
T32BC 000:685 JLINK_WriteReg(R7, 0x00000000)  returns 0x00 (0000ms, 0549ms total)
T32BC 000:686 JLINK_WriteReg(R8, 0x00000000)  returns 0x00 (0000ms, 0549ms total)
T32BC 000:686 JLINK_WriteReg(R9, 0x2000013C)  returns 0x00 (0000ms, 0549ms total)
T32BC 000:686 JLINK_WriteReg(R10, 0x00000000)  returns 0x00 (0000ms, 0549ms total)
T32BC 000:686 JLINK_WriteReg(R11, 0x00000000)  returns 0x00 (0000ms, 0549ms total)
T32BC 000:686 JLINK_WriteReg(R12, 0x00000000)  returns 0x00 (0000ms, 0549ms total)
T32BC 000:686 JLINK_WriteReg(R13 (SP), 0x20001000)  returns 0x00 (0000ms, 0549ms total)
T32BC 000:686 JLINK_WriteReg(R14, 0x20000001)  returns 0x00 (0000ms, 0549ms total)
T32BC 000:686 JLINK_WriteReg(R15 (PC), 0x20000020)  returns 0x00 (0000ms, 0549ms total)
T32BC 000:686 JLINK_WriteReg(XPSR, 0x01000000)  returns 0x00 (0000ms, 0549ms total)
T32BC 000:686 JLINK_WriteReg(MSP, 0x20001000)  returns 0x00 (0000ms, 0549ms total)
T32BC 000:686 JLINK_WriteReg(PSP, 0x20001000)  returns 0x00 (0000ms, 0549ms total)
T32BC 000:686 JLINK_WriteReg(CFBP, 0x00000000)  returns 0x00 (0000ms, 0549ms total)
T32BC 000:686 JLINK_SetBPEx(Addr = 0x20000000, Type = 0xFFFFFFF2) -- CPU_ReadMem(2 bytes @ 0x20000000)  returns 0x00000001 (0001ms, 0550ms total)
T32BC 000:687 JLINK_Go() -- CPU_WriteMem(2 bytes @ 0x20000000) -- CPU_ReadMem(4 bytes @ 0xE0001000) -- CPU_WriteMem(4 bytes @ 0xE0001000) -- CPU_WriteMem(4 bytes @ 0xE0002008) -- CPU_WriteMem(4 bytes @ 0xE000200C) -- CPU_WriteMem(4 bytes @ 0xE0002010) -- CPU_WriteMem(4 bytes @ 0xE0002014) -- CPU_WriteMem(4 bytes @ 0xE0001004) (0009ms, 0559ms total)
T32BC 000:696 JLINK_IsHalted() -- CPU_ReadMem(2 bytes @ 0x20000000)  returns TRUE (0005ms, 0564ms total)
T32BC 000:701 JLINK_ReadReg(R15 (PC))  returns 0x20000000 (0000ms, 0559ms total)
T32BC 000:701 JLINK_ClrBPEx(BPHandle = 0x00000001)  returns 0x00 (0000ms, 0559ms total)
T32BC 000:702 JLINK_ReadReg(R0)  returns 0x00000000 (0000ms, 0559ms total)
T32BC 000:702 JLINK_WriteReg(R0, 0x08000000)  returns 0x00 (0000ms, 0559ms total)
T32BC 000:702 JLINK_WriteReg(R1, 0x00000080)  returns 0x00 (0000ms, 0559ms total)
T32BC 000:702 JLINK_WriteReg(R2, 0x00000000)  returns 0x00 (0000ms, 0559ms total)
T32BC 000:702 JLINK_WriteReg(R3, 0x00000000)  returns 0x00 (0000ms, 0559ms total)
T32BC 000:702 JLINK_WriteReg(R4, 0x00000000)  returns 0x00 (0000ms, 0559ms total)
T32BC 000:702 JLINK_WriteReg(R5, 0x00000000)  returns 0x00 (0000ms, 0559ms total)
T32BC 000:702 JLINK_WriteReg(R6, 0x00000000)  returns 0x00 (0000ms, 0559ms total)
T32BC 000:702 JLINK_WriteReg(R7, 0x00000000)  returns 0x00 (0000ms, 0559ms total)
T32BC 000:702 JLINK_WriteReg(R8, 0x00000000)  returns 0x00 (0000ms, 0559ms total)
T32BC 000:702 JLINK_WriteReg(R9, 0x2000013C)  returns 0x00 (0000ms, 0559ms total)
T32BC 000:702 JLINK_WriteReg(R10, 0x00000000)  returns 0x00 (0000ms, 0559ms total)
T32BC 000:702 JLINK_WriteReg(R11, 0x00000000)  returns 0x00 (0000ms, 0559ms total)
T32BC 000:702 JLINK_WriteReg(R12, 0x00000000)  returns 0x00 (0000ms, 0559ms total)
T32BC 000:702 JLINK_WriteReg(R13 (SP), 0x20001000)  returns 0x00 (0000ms, 0559ms total)
T32BC 000:702 JLINK_WriteReg(R14, 0x20000001)  returns 0x00 (0000ms, 0559ms total)
T32BC 000:702 JLINK_WriteReg(R15 (PC), 0x200000B0)  returns 0x00 (0000ms, 0559ms total)
T32BC 000:702 JLINK_WriteReg(XPSR, 0x01000000)  returns 0x00 (0000ms, 0559ms total)
T32BC 000:702 JLINK_WriteReg(MSP, 0x20001000)  returns 0x00 (0000ms, 0559ms total)
T32BC 000:702 JLINK_WriteReg(PSP, 0x20001000)  returns 0x00 (0000ms, 0559ms total)
T32BC 000:702 JLINK_WriteReg(CFBP, 0x00000000)  returns 0x00 (0000ms, 0559ms total)
T32BC 000:702 JLINK_SetBPEx(Addr = 0x20000000, Type = 0xFFFFFFF2)  returns 0x00000002 (0000ms, 0559ms total)
T32BC 000:702 JLINK_Go() -- CPU_ReadMem(4 bytes @ 0xE0001000) -- CPU_WriteMem(4 bytes @ 0xE0001000) (0004ms, 0563ms total)
T32BC 000:706 JLINK_IsHalted() -- CPU_ReadMem(2 bytes @ 0x20000000)  returns TRUE (0006ms, 0569ms total)
T32BC 000:712 JLINK_ReadReg(R15 (PC))  returns 0x20000000 (0000ms, 0563ms total)
T32BC 000:712 JLINK_ClrBPEx(BPHandle = 0x00000002)  returns 0x00 (0000ms, 0563ms total)
T32BC 000:712 JLINK_ReadReg(R0)  returns 0x00000001 (0000ms, 0563ms total)
T32BC 000:712 JLINK_WriteReg(R0, 0x08000000)  returns 0x00 (0000ms, 0563ms total)
T32BC 000:712 JLINK_WriteReg(R1, 0x00000080)  returns 0x00 (0000ms, 0563ms total)
T32BC 000:712 JLINK_WriteReg(R2, 0x00000000)  returns 0x00 (0000ms, 0563ms total)
T32BC 000:712 JLINK_WriteReg(R3, 0x00000000)  returns 0x00 (0000ms, 0563ms total)
T32BC 000:712 JLINK_WriteReg(R4, 0x00000000)  returns 0x00 (0000ms, 0563ms total)
T32BC 000:712 JLINK_WriteReg(R5, 0x00000000)  returns 0x00 (0000ms, 0563ms total)
T32BC 000:712 JLINK_WriteReg(R6, 0x00000000)  returns 0x00 (0000ms, 0563ms total)
T32BC 000:712 JLINK_WriteReg(R7, 0x00000000)  returns 0x00 (0000ms, 0563ms total)
T32BC 000:712 JLINK_WriteReg(R8, 0x00000000)  returns 0x00 (0000ms, 0563ms total)
T32BC 000:712 JLINK_WriteReg(R9, 0x2000013C)  returns 0x00 (0000ms, 0563ms total)
T32BC 000:712 JLINK_WriteReg(R10, 0x00000000)  returns 0x00 (0000ms, 0563ms total)
T32BC 000:712 JLINK_WriteReg(R11, 0x00000000)  returns 0x00 (0000ms, 0563ms total)
T32BC 000:712 JLINK_WriteReg(R12, 0x00000000)  returns 0x00 (0000ms, 0563ms total)
T32BC 000:712 JLINK_WriteReg(R13 (SP), 0x20001000)  returns 0x00 (0000ms, 0563ms total)
T32BC 000:712 JLINK_WriteReg(R14, 0x20000001)  returns 0x00 (0000ms, 0563ms total)
T32BC 000:712 JLINK_WriteReg(R15 (PC), 0x2000007A)  returns 0x00 (0000ms, 0563ms total)
T32BC 000:712 JLINK_WriteReg(XPSR, 0x01000000)  returns 0x00 (0000ms, 0563ms total)
T32BC 000:712 JLINK_WriteReg(MSP, 0x20001000)  returns 0x00 (0000ms, 0563ms total)
T32BC 000:712 JLINK_WriteReg(PSP, 0x20001000)  returns 0x00 (0000ms, 0563ms total)
T32BC 000:712 JLINK_WriteReg(CFBP, 0x00000000)  returns 0x00 (0000ms, 0563ms total)
T32BC 000:712 JLINK_SetBPEx(Addr = 0x20000000, Type = 0xFFFFFFF2)  returns 0x00000003 (0000ms, 0563ms total)
T32BC 000:712 JLINK_Go() -- CPU_ReadMem(4 bytes @ 0xE0001000) -- CPU_WriteMem(4 bytes @ 0xE0001000) (0003ms, 0566ms total)
T32BC 000:715 JLINK_IsHalted()  returns FALSE (0000ms, 0566ms total)
T32BC 000:751 JLINK_IsHalted() -- CPU_ReadMem(2 bytes @ 0x20000000)  returns TRUE (0005ms, 0571ms total)
T32BC 000:756 JLINK_ReadReg(R15 (PC))  returns 0x20000000 (0000ms, 0566ms total)
T32BC 000:756 JLINK_ClrBPEx(BPHandle = 0x00000003)  returns 0x00 (0000ms, 0566ms total)
T32BC 000:756 JLINK_ReadReg(R0)  returns 0x00000000 (0000ms, 0566ms total)
T32BC 000:758 JLINK_WriteReg(R0, 0x08000080)  returns 0x00 (0000ms, 0566ms total)
T32BC 000:758 JLINK_WriteReg(R1, 0x00000080)  returns 0x00 (0000ms, 0566ms total)
T32BC 000:758 JLINK_WriteReg(R2, 0x00000000)  returns 0x00 (0000ms, 0566ms total)
T32BC 000:758 JLINK_WriteReg(R3, 0x00000000)  returns 0x00 (0000ms, 0566ms total)
T32BC 000:758 JLINK_WriteReg(R4, 0x00000000)  returns 0x00 (0000ms, 0566ms total)
T32BC 000:758 JLINK_WriteReg(R5, 0x00000000)  returns 0x00 (0000ms, 0566ms total)
T32BC 000:758 JLINK_WriteReg(R6, 0x00000000)  returns 0x00 (0000ms, 0566ms total)
T32BC 000:758 JLINK_WriteReg(R7, 0x00000000)  returns 0x00 (0000ms, 0566ms total)
T32BC 000:758 JLINK_WriteReg(R8, 0x00000000)  returns 0x00 (0000ms, 0566ms total)
T32BC 000:758 JLINK_WriteReg(R9, 0x2000013C)  returns 0x00 (0000ms, 0566ms total)
T32BC 000:758 JLINK_WriteReg(R10, 0x00000000)  returns 0x00 (0000ms, 0566ms total)
T32BC 000:758 JLINK_WriteReg(R11, 0x00000000)  returns 0x00 (0000ms, 0566ms total)
T32BC 000:758 JLINK_WriteReg(R12, 0x00000000)  returns 0x00 (0000ms, 0566ms total)
T32BC 000:758 JLINK_WriteReg(R13 (SP), 0x20001000)  returns 0x00 (0000ms, 0566ms total)
T32BC 000:758 JLINK_WriteReg(R14, 0x20000001)  returns 0x00 (0000ms, 0566ms total)
T32BC 000:758 JLINK_WriteReg(R15 (PC), 0x200000B0)  returns 0x00 (0000ms, 0566ms total)
T32BC 000:758 JLINK_WriteReg(XPSR, 0x01000000)  returns 0x00 (0000ms, 0566ms total)
T32BC 000:758 JLINK_WriteReg(MSP, 0x20001000)  returns 0x00 (0000ms, 0566ms total)
T32BC 000:758 JLINK_WriteReg(PSP, 0x20001000)  returns 0x00 (0000ms, 0566ms total)
T32BC 000:758 JLINK_WriteReg(CFBP, 0x00000000)  returns 0x00 (0000ms, 0566ms total)
T32BC 000:758 JLINK_SetBPEx(Addr = 0x20000000, Type = 0xFFFFFFF2)  returns 0x00000004 (0000ms, 0566ms total)
T32BC 000:758 JLINK_Go() -- CPU_ReadMem(4 bytes @ 0xE0001000) -- CPU_WriteMem(4 bytes @ 0xE0001000) (0003ms, 0569ms total)
T32BC 000:761 JLINK_IsHalted() -- CPU_ReadMem(2 bytes @ 0x20000000)  returns TRUE (0006ms, 0575ms total)
T32BC 000:767 JLINK_ReadReg(R15 (PC))  returns 0x20000000 (0000ms, 0569ms total)
T32BC 000:767 JLINK_ClrBPEx(BPHandle = 0x00000004)  returns 0x00 (0000ms, 0569ms total)
T32BC 000:767 JLINK_ReadReg(R0)  returns 0x00000001 (0000ms, 0569ms total)
T32BC 000:767 JLINK_WriteReg(R0, 0x08000080)  returns 0x00 (0000ms, 0569ms total)
T32BC 000:767 JLINK_WriteReg(R1, 0x00000080)  returns 0x00 (0000ms, 0569ms total)
T32BC 000:767 JLINK_WriteReg(R2, 0x00000000)  returns 0x00 (0000ms, 0569ms total)
T32BC 000:767 JLINK_WriteReg(R3, 0x00000000)  returns 0x00 (0000ms, 0569ms total)
T32BC 000:767 JLINK_WriteReg(R4, 0x00000000)  returns 0x00 (0000ms, 0569ms total)
T32BC 000:767 JLINK_WriteReg(R5, 0x00000000)  returns 0x00 (0000ms, 0569ms total)
T32BC 000:767 JLINK_WriteReg(R6, 0x00000000)  returns 0x00 (0000ms, 0569ms total)
T32BC 000:767 JLINK_WriteReg(R7, 0x00000000)  returns 0x00 (0000ms, 0569ms total)
T32BC 000:767 JLINK_WriteReg(R8, 0x00000000)  returns 0x00 (0000ms, 0569ms total)
T32BC 000:767 JLINK_WriteReg(R9, 0x2000013C)  returns 0x00 (0000ms, 0569ms total)
T32BC 000:767 JLINK_WriteReg(R10, 0x00000000)  returns 0x00 (0000ms, 0569ms total)
T32BC 000:767 JLINK_WriteReg(R11, 0x00000000)  returns 0x00 (0000ms, 0569ms total)
T32BC 000:767 JLINK_WriteReg(R12, 0x00000000)  returns 0x00 (0000ms, 0569ms total)
T32BC 000:767 JLINK_WriteReg(R13 (SP), 0x20001000)  returns 0x00 (0000ms, 0569ms total)
T32BC 000:767 JLINK_WriteReg(R14, 0x20000001)  returns 0x00 (0000ms, 0569ms total)
T32BC 000:767 JLINK_WriteReg(R15 (PC), 0x2000007A)  returns 0x00 (0000ms, 0569ms total)
T32BC 000:767 JLINK_WriteReg(XPSR, 0x01000000)  returns 0x00 (0000ms, 0569ms total)
T32BC 000:767 JLINK_WriteReg(MSP, 0x20001000)  returns 0x00 (0000ms, 0569ms total)
T32BC 000:767 JLINK_WriteReg(PSP, 0x20001000)  returns 0x00 (0000ms, 0569ms total)
T32BC 000:767 JLINK_WriteReg(CFBP, 0x00000000)  returns 0x00 (0000ms, 0569ms total)
T32BC 000:767 JLINK_SetBPEx(Addr = 0x20000000, Type = 0xFFFFFFF2)  returns 0x00000005 (0000ms, 0569ms total)
T32BC 000:767 JLINK_Go() -- CPU_ReadMem(4 bytes @ 0xE0001000) -- CPU_WriteMem(4 bytes @ 0xE0001000) (0003ms, 0572ms total)
T32BC 000:770 JLINK_IsHalted()  returns FALSE (0001ms, 0573ms total)
T32BC 000:774 JLINK_IsHalted() -- CPU_ReadMem(2 bytes @ 0x20000000)  returns TRUE (0005ms, 0577ms total)
T32BC 000:779 JLINK_ReadReg(R15 (PC))  returns 0x20000000 (0000ms, 0572ms total)
T32BC 000:779 JLINK_ClrBPEx(BPHandle = 0x00000005)  returns 0x00 (0000ms, 0572ms total)
T32BC 000:779 JLINK_ReadReg(R0)  returns 0x00000000 (0000ms, 0572ms total)
T32BC 000:780 JLINK_WriteReg(R0, 0x08000100)  returns 0x00 (0000ms, 0572ms total)
T32BC 000:780 JLINK_WriteReg(R1, 0x00000080)  returns 0x00 (0000ms, 0572ms total)
T32BC 000:780 JLINK_WriteReg(R2, 0x00000000)  returns 0x00 (0000ms, 0572ms total)
T32BC 000:780 JLINK_WriteReg(R3, 0x00000000)  returns 0x00 (0000ms, 0572ms total)
T32BC 000:780 JLINK_WriteReg(R4, 0x00000000)  returns 0x00 (0000ms, 0572ms total)
T32BC 000:780 JLINK_WriteReg(R5, 0x00000000)  returns 0x00 (0000ms, 0572ms total)
T32BC 000:780 JLINK_WriteReg(R6, 0x00000000)  returns 0x00 (0000ms, 0572ms total)
T32BC 000:780 JLINK_WriteReg(R7, 0x00000000)  returns 0x00 (0000ms, 0572ms total)
T32BC 000:780 JLINK_WriteReg(R8, 0x00000000)  returns 0x00 (0000ms, 0572ms total)
T32BC 000:780 JLINK_WriteReg(R9, 0x2000013C)  returns 0x00 (0000ms, 0572ms total)
T32BC 000:780 JLINK_WriteReg(R10, 0x00000000)  returns 0x00 (0000ms, 0572ms total)
T32BC 000:780 JLINK_WriteReg(R11, 0x00000000)  returns 0x00 (0000ms, 0572ms total)
T32BC 000:780 JLINK_WriteReg(R12, 0x00000000)  returns 0x00 (0000ms, 0572ms total)
T32BC 000:780 JLINK_WriteReg(R13 (SP), 0x20001000)  returns 0x00 (0000ms, 0572ms total)
T32BC 000:780 JLINK_WriteReg(R14, 0x20000001)  returns 0x00 (0000ms, 0572ms total)
T32BC 000:780 JLINK_WriteReg(R15 (PC), 0x200000B0)  returns 0x00 (0000ms, 0572ms total)
T32BC 000:780 JLINK_WriteReg(XPSR, 0x01000000)  returns 0x00 (0000ms, 0572ms total)
T32BC 000:780 JLINK_WriteReg(MSP, 0x20001000)  returns 0x00 (0000ms, 0572ms total)
T32BC 000:780 JLINK_WriteReg(PSP, 0x20001000)  returns 0x00 (0000ms, 0572ms total)
T32BC 000:780 JLINK_WriteReg(CFBP, 0x00000000)  returns 0x00 (0000ms, 0572ms total)
T32BC 000:780 JLINK_SetBPEx(Addr = 0x20000000, Type = 0xFFFFFFF2)  returns 0x00000006 (0000ms, 0572ms total)
T32BC 000:780 JLINK_Go() -- CPU_ReadMem(4 bytes @ 0xE0001000) -- CPU_WriteMem(4 bytes @ 0xE0001000) (0004ms, 0576ms total)
T32BC 000:784 JLINK_IsHalted() -- CPU_ReadMem(2 bytes @ 0x20000000)  returns TRUE (0006ms, 0582ms total)
T32BC 000:790 JLINK_ReadReg(R15 (PC))  returns 0x20000000 (0000ms, 0576ms total)
T32BC 000:790 JLINK_ClrBPEx(BPHandle = 0x00000006)  returns 0x00 (0000ms, 0576ms total)
T32BC 000:790 JLINK_ReadReg(R0)  returns 0x00000001 (0000ms, 0576ms total)
T32BC 000:790 JLINK_WriteReg(R0, 0x08000100)  returns 0x00 (0000ms, 0576ms total)
T32BC 000:790 JLINK_WriteReg(R1, 0x00000080)  returns 0x00 (0000ms, 0576ms total)
T32BC 000:790 JLINK_WriteReg(R2, 0x00000000)  returns 0x00 (0000ms, 0576ms total)
T32BC 000:790 JLINK_WriteReg(R3, 0x00000000)  returns 0x00 (0000ms, 0576ms total)
T32BC 000:790 JLINK_WriteReg(R4, 0x00000000)  returns 0x00 (0000ms, 0576ms total)
T32BC 000:790 JLINK_WriteReg(R5, 0x00000000)  returns 0x00 (0000ms, 0576ms total)
T32BC 000:790 JLINK_WriteReg(R6, 0x00000000)  returns 0x00 (0000ms, 0576ms total)
T32BC 000:790 JLINK_WriteReg(R7, 0x00000000)  returns 0x00 (0000ms, 0576ms total)
T32BC 000:790 JLINK_WriteReg(R8, 0x00000000)  returns 0x00 (0000ms, 0576ms total)
T32BC 000:790 JLINK_WriteReg(R9, 0x2000013C)  returns 0x00 (0000ms, 0576ms total)
T32BC 000:790 JLINK_WriteReg(R10, 0x00000000)  returns 0x00 (0000ms, 0576ms total)
T32BC 000:790 JLINK_WriteReg(R11, 0x00000000)  returns 0x00 (0000ms, 0576ms total)
T32BC 000:790 JLINK_WriteReg(R12, 0x00000000)  returns 0x00 (0000ms, 0576ms total)
T32BC 000:790 JLINK_WriteReg(R13 (SP), 0x20001000)  returns 0x00 (0000ms, 0576ms total)
T32BC 000:790 JLINK_WriteReg(R14, 0x20000001)  returns 0x00 (0000ms, 0576ms total)
T32BC 000:790 JLINK_WriteReg(R15 (PC), 0x2000007A)  returns 0x00 (0000ms, 0576ms total)
T32BC 000:790 JLINK_WriteReg(XPSR, 0x01000000)  returns 0x00 (0000ms, 0576ms total)
T32BC 000:790 JLINK_WriteReg(MSP, 0x20001000)  returns 0x00 (0000ms, 0576ms total)
T32BC 000:790 JLINK_WriteReg(PSP, 0x20001000)  returns 0x00 (0000ms, 0576ms total)
T32BC 000:790 JLINK_WriteReg(CFBP, 0x00000000)  returns 0x00 (0000ms, 0576ms total)
T32BC 000:790 JLINK_SetBPEx(Addr = 0x20000000, Type = 0xFFFFFFF2)  returns 0x00000007 (0000ms, 0576ms total)
T32BC 000:790 JLINK_Go() -- CPU_ReadMem(4 bytes @ 0xE0001000) -- CPU_WriteMem(4 bytes @ 0xE0001000) (0003ms, 0579ms total)
T32BC 000:793 JLINK_IsHalted()  returns FALSE (0001ms, 0580ms total)
T32BC 000:796 JLINK_IsHalted() -- CPU_ReadMem(2 bytes @ 0x20000000)  returns TRUE (0005ms, 0584ms total)
T32BC 000:801 JLINK_ReadReg(R15 (PC))  returns 0x20000000 (0000ms, 0579ms total)
T32BC 000:801 JLINK_ClrBPEx(BPHandle = 0x00000007)  returns 0x00 (0000ms, 0579ms total)
T32BC 000:801 JLINK_ReadReg(R0)  returns 0x00000000 (0000ms, 0579ms total)
T32BC 000:802 JLINK_WriteReg(R0, 0x08000180)  returns 0x00 (0000ms, 0579ms total)
T32BC 000:802 JLINK_WriteReg(R1, 0x00000080)  returns 0x00 (0000ms, 0579ms total)
T32BC 000:802 JLINK_WriteReg(R2, 0x00000000)  returns 0x00 (0000ms, 0579ms total)
T32BC 000:802 JLINK_WriteReg(R3, 0x00000000)  returns 0x00 (0000ms, 0579ms total)
T32BC 000:802 JLINK_WriteReg(R4, 0x00000000)  returns 0x00 (0000ms, 0579ms total)
T32BC 000:802 JLINK_WriteReg(R5, 0x00000000)  returns 0x00 (0000ms, 0579ms total)
T32BC 000:802 JLINK_WriteReg(R6, 0x00000000)  returns 0x00 (0000ms, 0579ms total)
T32BC 000:802 JLINK_WriteReg(R7, 0x00000000)  returns 0x00 (0000ms, 0579ms total)
T32BC 000:802 JLINK_WriteReg(R8, 0x00000000)  returns 0x00 (0000ms, 0579ms total)
T32BC 000:802 JLINK_WriteReg(R9, 0x2000013C)  returns 0x00 (0000ms, 0579ms total)
T32BC 000:802 JLINK_WriteReg(R10, 0x00000000)  returns 0x00 (0000ms, 0579ms total)
T32BC 000:802 JLINK_WriteReg(R11, 0x00000000)  returns 0x00 (0000ms, 0579ms total)
T32BC 000:802 JLINK_WriteReg(R12, 0x00000000)  returns 0x00 (0000ms, 0579ms total)
T32BC 000:802 JLINK_WriteReg(R13 (SP), 0x20001000)  returns 0x00 (0000ms, 0579ms total)
T32BC 000:802 JLINK_WriteReg(R14, 0x20000001)  returns 0x00 (0000ms, 0579ms total)
T32BC 000:802 JLINK_WriteReg(R15 (PC), 0x200000B0)  returns 0x00 (0000ms, 0579ms total)
T32BC 000:802 JLINK_WriteReg(XPSR, 0x01000000)  returns 0x00 (0000ms, 0579ms total)
T32BC 000:802 JLINK_WriteReg(MSP, 0x20001000)  returns 0x00 (0000ms, 0579ms total)
T32BC 000:802 JLINK_WriteReg(PSP, 0x20001000)  returns 0x00 (0000ms, 0579ms total)
T32BC 000:802 JLINK_WriteReg(CFBP, 0x00000000)  returns 0x00 (0000ms, 0579ms total)
T32BC 000:802 JLINK_SetBPEx(Addr = 0x20000000, Type = 0xFFFFFFF2)  returns 0x00000008 (0000ms, 0579ms total)
T32BC 000:802 JLINK_Go() -- CPU_ReadMem(4 bytes @ 0xE0001000) -- CPU_WriteMem(4 bytes @ 0xE0001000) (0003ms, 0582ms total)
T32BC 000:805 JLINK_IsHalted() -- CPU_ReadMem(2 bytes @ 0x20000000)  returns TRUE (0005ms, 0587ms total)
T32BC 000:810 JLINK_ReadReg(R15 (PC))  returns 0x20000000 (0000ms, 0582ms total)
T32BC 000:810 JLINK_ClrBPEx(BPHandle = 0x00000008)  returns 0x00 (0000ms, 0582ms total)
T32BC 000:810 JLINK_ReadReg(R0)  returns 0x00000001 (0000ms, 0582ms total)
T32BC 000:810 JLINK_WriteReg(R0, 0x08000180)  returns 0x00 (0000ms, 0582ms total)
T32BC 000:810 JLINK_WriteReg(R1, 0x00000080)  returns 0x00 (0000ms, 0582ms total)
T32BC 000:810 JLINK_WriteReg(R2, 0x00000000)  returns 0x00 (0000ms, 0582ms total)
T32BC 000:810 JLINK_WriteReg(R3, 0x00000000)  returns 0x00 (0000ms, 0582ms total)
T32BC 000:810 JLINK_WriteReg(R4, 0x00000000)  returns 0x00 (0000ms, 0582ms total)
T32BC 000:810 JLINK_WriteReg(R5, 0x00000000)  returns 0x00 (0000ms, 0582ms total)
T32BC 000:810 JLINK_WriteReg(R6, 0x00000000)  returns 0x00 (0000ms, 0582ms total)
T32BC 000:810 JLINK_WriteReg(R7, 0x00000000)  returns 0x00 (0000ms, 0582ms total)
T32BC 000:810 JLINK_WriteReg(R8, 0x00000000)  returns 0x00 (0000ms, 0582ms total)
T32BC 000:810 JLINK_WriteReg(R9, 0x2000013C)  returns 0x00 (0000ms, 0582ms total)
T32BC 000:810 JLINK_WriteReg(R10, 0x00000000)  returns 0x00 (0000ms, 0582ms total)
T32BC 000:810 JLINK_WriteReg(R11, 0x00000000)  returns 0x00 (0000ms, 0582ms total)
T32BC 000:810 JLINK_WriteReg(R12, 0x00000000)  returns 0x00 (0000ms, 0582ms total)
T32BC 000:810 JLINK_WriteReg(R13 (SP), 0x20001000)  returns 0x00 (0000ms, 0582ms total)
T32BC 000:810 JLINK_WriteReg(R14, 0x20000001)  returns 0x00 (0000ms, 0582ms total)
T32BC 000:810 JLINK_WriteReg(R15 (PC), 0x2000007A)  returns 0x00 (0001ms, 0583ms total)
T32BC 000:811 JLINK_WriteReg(XPSR, 0x01000000)  returns 0x00 (0000ms, 0583ms total)
T32BC 000:811 JLINK_WriteReg(MSP, 0x20001000)  returns 0x00 (0000ms, 0583ms total)
T32BC 000:811 JLINK_WriteReg(PSP, 0x20001000)  returns 0x00 (0000ms, 0583ms total)
T32BC 000:811 JLINK_WriteReg(CFBP, 0x00000000)  returns 0x00 (0000ms, 0583ms total)
T32BC 000:811 JLINK_SetBPEx(Addr = 0x20000000, Type = 0xFFFFFFF2)  returns 0x00000009 (0000ms, 0583ms total)
T32BC 000:811 JLINK_Go() -- CPU_ReadMem(4 bytes @ 0xE0001000) -- CPU_WriteMem(4 bytes @ 0xE0001000) (0003ms, 0586ms total)
T32BC 000:814 JLINK_IsHalted()  returns FALSE (0000ms, 0586ms total)
T32BC 000:820 JLINK_IsHalted() -- CPU_ReadMem(2 bytes @ 0x20000000)  returns TRUE (0005ms, 0591ms total)
T32BC 000:825 JLINK_ReadReg(R15 (PC))  returns 0x20000000 (0000ms, 0586ms total)
T32BC 000:825 JLINK_ClrBPEx(BPHandle = 0x00000009)  returns 0x00 (0000ms, 0586ms total)
T32BC 000:826 JLINK_ReadReg(R0)  returns 0x00000000 (0000ms, 0586ms total)
T32BC 000:826 JLINK_WriteReg(R0, 0x08000200)  returns 0x00 (0000ms, 0586ms total)
T32BC 000:826 JLINK_WriteReg(R1, 0x00000080)  returns 0x00 (0000ms, 0586ms total)
T32BC 000:826 JLINK_WriteReg(R2, 0x00000000)  returns 0x00 (0000ms, 0586ms total)
T32BC 000:826 JLINK_WriteReg(R3, 0x00000000)  returns 0x00 (0000ms, 0586ms total)
T32BC 000:826 JLINK_WriteReg(R4, 0x00000000)  returns 0x00 (0000ms, 0586ms total)
T32BC 000:826 JLINK_WriteReg(R5, 0x00000000)  returns 0x00 (0000ms, 0586ms total)
T32BC 000:826 JLINK_WriteReg(R6, 0x00000000)  returns 0x00 (0000ms, 0586ms total)
T32BC 000:826 JLINK_WriteReg(R7, 0x00000000)  returns 0x00 (0000ms, 0586ms total)
T32BC 000:826 JLINK_WriteReg(R8, 0x00000000)  returns 0x00 (0000ms, 0586ms total)
T32BC 000:826 JLINK_WriteReg(R9, 0x2000013C)  returns 0x00 (0000ms, 0586ms total)
T32BC 000:826 JLINK_WriteReg(R10, 0x00000000)  returns 0x00 (0000ms, 0586ms total)
T32BC 000:826 JLINK_WriteReg(R11, 0x00000000)  returns 0x00 (0000ms, 0586ms total)
T32BC 000:826 JLINK_WriteReg(R12, 0x00000000)  returns 0x00 (0000ms, 0586ms total)
T32BC 000:826 JLINK_WriteReg(R13 (SP), 0x20001000)  returns 0x00 (0000ms, 0586ms total)
T32BC 000:826 JLINK_WriteReg(R14, 0x20000001)  returns 0x00 (0000ms, 0586ms total)
T32BC 000:826 JLINK_WriteReg(R15 (PC), 0x200000B0)  returns 0x00 (0000ms, 0586ms total)
T32BC 000:826 JLINK_WriteReg(XPSR, 0x01000000)  returns 0x00 (0000ms, 0586ms total)
T32BC 000:826 JLINK_WriteReg(MSP, 0x20001000)  returns 0x00 (0000ms, 0586ms total)
T32BC 000:826 JLINK_WriteReg(PSP, 0x20001000)  returns 0x00 (0000ms, 0586ms total)
T32BC 000:826 JLINK_WriteReg(CFBP, 0x00000000)  returns 0x00 (0000ms, 0586ms total)
T32BC 000:826 JLINK_SetBPEx(Addr = 0x20000000, Type = 0xFFFFFFF2)  returns 0x0000000A (0000ms, 0586ms total)
T32BC 000:826 JLINK_Go() -- CPU_ReadMem(4 bytes @ 0xE0001000) -- CPU_WriteMem(4 bytes @ 0xE0001000) (0004ms, 0590ms total)
T32BC 000:830 JLINK_IsHalted() -- CPU_ReadMem(2 bytes @ 0x20000000)  returns TRUE (0005ms, 0595ms total)
T32BC 000:835 JLINK_ReadReg(R15 (PC))  returns 0x20000000 (0000ms, 0590ms total)
T32BC 000:835 JLINK_ClrBPEx(BPHandle = 0x0000000A)  returns 0x00 (0000ms, 0590ms total)
T32BC 000:835 JLINK_ReadReg(R0)  returns 0x00000001 (0000ms, 0590ms total)
T32BC 000:835 JLINK_WriteReg(R0, 0x08000200)  returns 0x00 (0000ms, 0590ms total)
T32BC 000:835 JLINK_WriteReg(R1, 0x00000080)  returns 0x00 (0000ms, 0590ms total)
T32BC 000:835 JLINK_WriteReg(R2, 0x00000000)  returns 0x00 (0000ms, 0590ms total)
T32BC 000:835 JLINK_WriteReg(R3, 0x00000000)  returns 0x00 (0000ms, 0590ms total)
T32BC 000:835 JLINK_WriteReg(R4, 0x00000000)  returns 0x00 (0000ms, 0590ms total)
T32BC 000:835 JLINK_WriteReg(R5, 0x00000000)  returns 0x00 (0000ms, 0590ms total)
T32BC 000:835 JLINK_WriteReg(R6, 0x00000000)  returns 0x00 (0000ms, 0590ms total)
T32BC 000:835 JLINK_WriteReg(R7, 0x00000000)  returns 0x00 (0000ms, 0590ms total)
T32BC 000:835 JLINK_WriteReg(R8, 0x00000000)  returns 0x00 (0000ms, 0590ms total)
T32BC 000:835 JLINK_WriteReg(R9, 0x2000013C)  returns 0x00 (0000ms, 0590ms total)
T32BC 000:835 JLINK_WriteReg(R10, 0x00000000)  returns 0x00 (0000ms, 0590ms total)
T32BC 000:835 JLINK_WriteReg(R11, 0x00000000)  returns 0x00 (0000ms, 0590ms total)
T32BC 000:835 JLINK_WriteReg(R12, 0x00000000)  returns 0x00 (0000ms, 0590ms total)
T32BC 000:835 JLINK_WriteReg(R13 (SP), 0x20001000)  returns 0x00 (0000ms, 0590ms total)
T32BC 000:835 JLINK_WriteReg(R14, 0x20000001)  returns 0x00 (0000ms, 0590ms total)
T32BC 000:835 JLINK_WriteReg(R15 (PC), 0x2000007A)  returns 0x00 (0000ms, 0590ms total)
T32BC 000:835 JLINK_WriteReg(XPSR, 0x01000000)  returns 0x00 (0000ms, 0590ms total)
T32BC 000:835 JLINK_WriteReg(MSP, 0x20001000)  returns 0x00 (0000ms, 0590ms total)
T32BC 000:835 JLINK_WriteReg(PSP, 0x20001000)  returns 0x00 (0000ms, 0590ms total)
T32BC 000:835 JLINK_WriteReg(CFBP, 0x00000000)  returns 0x00 (0000ms, 0590ms total)
T32BC 000:835 JLINK_SetBPEx(Addr = 0x20000000, Type = 0xFFFFFFF2)  returns 0x0000000B (0000ms, 0590ms total)
T32BC 000:835 JLINK_Go() -- CPU_ReadMem(4 bytes @ 0xE0001000) -- CPU_WriteMem(4 bytes @ 0xE0001000) (0002ms, 0592ms total)
T32BC 000:837 JLINK_IsHalted()  returns FALSE (0001ms, 0593ms total)
T32BC 000:842 JLINK_IsHalted() -- CPU_ReadMem(2 bytes @ 0x20000000)  returns TRUE (0005ms, 0597ms total)
T32BC 000:847 JLINK_ReadReg(R15 (PC))  returns 0x20000000 (0000ms, 0592ms total)
T32BC 000:847 JLINK_ClrBPEx(BPHandle = 0x0000000B)  returns 0x00 (0000ms, 0592ms total)
T32BC 000:847 JLINK_ReadReg(R0)  returns 0x00000000 (0000ms, 0592ms total)
T32BC 000:848 JLINK_WriteReg(R0, 0x08000280)  returns 0x00 (0000ms, 0592ms total)
T32BC 000:848 JLINK_WriteReg(R1, 0x00000080)  returns 0x00 (0000ms, 0592ms total)
T32BC 000:848 JLINK_WriteReg(R2, 0x00000000)  returns 0x00 (0000ms, 0592ms total)
T32BC 000:848 JLINK_WriteReg(R3, 0x00000000)  returns 0x00 (0000ms, 0592ms total)
T32BC 000:848 JLINK_WriteReg(R4, 0x00000000)  returns 0x00 (0000ms, 0592ms total)
T32BC 000:848 JLINK_WriteReg(R5, 0x00000000)  returns 0x00 (0000ms, 0592ms total)
T32BC 000:848 JLINK_WriteReg(R6, 0x00000000)  returns 0x00 (0000ms, 0592ms total)
T32BC 000:848 JLINK_WriteReg(R7, 0x00000000)  returns 0x00 (0000ms, 0592ms total)
T32BC 000:848 JLINK_WriteReg(R8, 0x00000000)  returns 0x00 (0000ms, 0592ms total)
T32BC 000:848 JLINK_WriteReg(R9, 0x2000013C)  returns 0x00 (0000ms, 0592ms total)
T32BC 000:848 JLINK_WriteReg(R10, 0x00000000)  returns 0x00 (0000ms, 0592ms total)
T32BC 000:848 JLINK_WriteReg(R11, 0x00000000)  returns 0x00 (0000ms, 0592ms total)
T32BC 000:848 JLINK_WriteReg(R12, 0x00000000)  returns 0x00 (0000ms, 0592ms total)
T32BC 000:848 JLINK_WriteReg(R13 (SP), 0x20001000)  returns 0x00 (0000ms, 0592ms total)
T32BC 000:848 JLINK_WriteReg(R14, 0x20000001)  returns 0x00 (0000ms, 0592ms total)
T32BC 000:848 JLINK_WriteReg(R15 (PC), 0x200000B0)  returns 0x00 (0000ms, 0592ms total)
T32BC 000:848 JLINK_WriteReg(XPSR, 0x01000000)  returns 0x00 (0000ms, 0592ms total)
T32BC 000:848 JLINK_WriteReg(MSP, 0x20001000)  returns 0x00 (0000ms, 0592ms total)
T32BC 000:848 JLINK_WriteReg(PSP, 0x20001000)  returns 0x00 (0000ms, 0592ms total)
T32BC 000:848 JLINK_WriteReg(CFBP, 0x00000000)  returns 0x00 (0000ms, 0592ms total)
T32BC 000:848 JLINK_SetBPEx(Addr = 0x20000000, Type = 0xFFFFFFF2)  returns 0x0000000C (0000ms, 0592ms total)
T32BC 000:848 JLINK_Go() -- CPU_ReadMem(4 bytes @ 0xE0001000) -- CPU_WriteMem(4 bytes @ 0xE0001000) (0003ms, 0595ms total)
T32BC 000:851 JLINK_IsHalted() -- CPU_ReadMem(2 bytes @ 0x20000000)  returns TRUE (0006ms, 0601ms total)
T32BC 000:857 JLINK_ReadReg(R15 (PC))  returns 0x20000000 (0000ms, 0595ms total)
T32BC 000:857 JLINK_ClrBPEx(BPHandle = 0x0000000C)  returns 0x00 (0000ms, 0595ms total)
T32BC 000:857 JLINK_ReadReg(R0)  returns 0x00000001 (0000ms, 0595ms total)
T32BC 000:857 JLINK_WriteReg(R0, 0x08000280)  returns 0x00 (0000ms, 0595ms total)
T32BC 000:857 JLINK_WriteReg(R1, 0x00000080)  returns 0x00 (0000ms, 0595ms total)
T32BC 000:857 JLINK_WriteReg(R2, 0x00000000)  returns 0x00 (0000ms, 0595ms total)
T32BC 000:857 JLINK_WriteReg(R3, 0x00000000)  returns 0x00 (0000ms, 0595ms total)
T32BC 000:857 JLINK_WriteReg(R4, 0x00000000)  returns 0x00 (0000ms, 0595ms total)
T32BC 000:857 JLINK_WriteReg(R5, 0x00000000)  returns 0x00 (0000ms, 0595ms total)
T32BC 000:857 JLINK_WriteReg(R6, 0x00000000)  returns 0x00 (0000ms, 0595ms total)
T32BC 000:857 JLINK_WriteReg(R7, 0x00000000)  returns 0x00 (0000ms, 0595ms total)
T32BC 000:857 JLINK_WriteReg(R8, 0x00000000)  returns 0x00 (0000ms, 0595ms total)
T32BC 000:857 JLINK_WriteReg(R9, 0x2000013C)  returns 0x00 (0000ms, 0595ms total)
T32BC 000:857 JLINK_WriteReg(R10, 0x00000000)  returns 0x00 (0000ms, 0595ms total)
T32BC 000:857 JLINK_WriteReg(R11, 0x00000000)  returns 0x00 (0000ms, 0595ms total)
T32BC 000:857 JLINK_WriteReg(R12, 0x00000000)  returns 0x00 (0000ms, 0595ms total)
T32BC 000:857 JLINK_WriteReg(R13 (SP), 0x20001000)  returns 0x00 (0000ms, 0595ms total)
T32BC 000:857 JLINK_WriteReg(R14, 0x20000001)  returns 0x00 (0000ms, 0595ms total)
T32BC 000:857 JLINK_WriteReg(R15 (PC), 0x2000007A)  returns 0x00 (0000ms, 0595ms total)
T32BC 000:857 JLINK_WriteReg(XPSR, 0x01000000)  returns 0x00 (0000ms, 0595ms total)
T32BC 000:857 JLINK_WriteReg(MSP, 0x20001000)  returns 0x00 (0000ms, 0595ms total)
T32BC 000:857 JLINK_WriteReg(PSP, 0x20001000)  returns 0x00 (0000ms, 0595ms total)
T32BC 000:857 JLINK_WriteReg(CFBP, 0x00000000)  returns 0x00 (0000ms, 0595ms total)
T32BC 000:857 JLINK_SetBPEx(Addr = 0x20000000, Type = 0xFFFFFFF2)  returns 0x0000000D (0000ms, 0595ms total)
T32BC 000:857 JLINK_Go() -- CPU_ReadMem(4 bytes @ 0xE0001000) -- CPU_WriteMem(4 bytes @ 0xE0001000) (0003ms, 0598ms total)
T32BC 000:860 JLINK_IsHalted()  returns FALSE (0001ms, 0599ms total)
T32BC 000:865 JLINK_IsHalted() -- CPU_ReadMem(2 bytes @ 0x20000000)  returns TRUE (0005ms, 0603ms total)
T32BC 000:870 JLINK_ReadReg(R15 (PC))  returns 0x20000000 (0000ms, 0598ms total)
T32BC 000:870 JLINK_ClrBPEx(BPHandle = 0x0000000D)  returns 0x00 (0000ms, 0598ms total)
T32BC 000:870 JLINK_ReadReg(R0)  returns 0x00000000 (0000ms, 0598ms total)
T32BC 000:871 JLINK_WriteReg(R0, 0x08000300)  returns 0x00 (0000ms, 0598ms total)
T32BC 000:871 JLINK_WriteReg(R1, 0x00000080)  returns 0x00 (0000ms, 0598ms total)
T32BC 000:871 JLINK_WriteReg(R2, 0x00000000)  returns 0x00 (0000ms, 0598ms total)
T32BC 000:871 JLINK_WriteReg(R3, 0x00000000)  returns 0x00 (0000ms, 0598ms total)
T32BC 000:871 JLINK_WriteReg(R4, 0x00000000)  returns 0x00 (0000ms, 0598ms total)
T32BC 000:871 JLINK_WriteReg(R5, 0x00000000)  returns 0x00 (0000ms, 0598ms total)
T32BC 000:871 JLINK_WriteReg(R6, 0x00000000)  returns 0x00 (0000ms, 0598ms total)
T32BC 000:871 JLINK_WriteReg(R7, 0x00000000)  returns 0x00 (0000ms, 0598ms total)
T32BC 000:871 JLINK_WriteReg(R8, 0x00000000)  returns 0x00 (0000ms, 0598ms total)
T32BC 000:871 JLINK_WriteReg(R9, 0x2000013C)  returns 0x00 (0000ms, 0598ms total)
T32BC 000:871 JLINK_WriteReg(R10, 0x00000000)  returns 0x00 (0000ms, 0598ms total)
T32BC 000:871 JLINK_WriteReg(R11, 0x00000000)  returns 0x00 (0000ms, 0598ms total)
T32BC 000:871 JLINK_WriteReg(R12, 0x00000000)  returns 0x00 (0000ms, 0598ms total)
T32BC 000:871 JLINK_WriteReg(R13 (SP), 0x20001000)  returns 0x00 (0000ms, 0598ms total)
T32BC 000:871 JLINK_WriteReg(R14, 0x20000001)  returns 0x00 (0000ms, 0598ms total)
T32BC 000:871 JLINK_WriteReg(R15 (PC), 0x200000B0)  returns 0x00 (0000ms, 0598ms total)
T32BC 000:871 JLINK_WriteReg(XPSR, 0x01000000)  returns 0x00 (0000ms, 0598ms total)
T32BC 000:871 JLINK_WriteReg(MSP, 0x20001000)  returns 0x00 (0000ms, 0598ms total)
T32BC 000:871 JLINK_WriteReg(PSP, 0x20001000)  returns 0x00 (0000ms, 0598ms total)
T32BC 000:871 JLINK_WriteReg(CFBP, 0x00000000)  returns 0x00 (0000ms, 0598ms total)
T32BC 000:871 JLINK_SetBPEx(Addr = 0x20000000, Type = 0xFFFFFFF2)  returns 0x0000000E (0000ms, 0598ms total)
T32BC 000:871 JLINK_Go() -- CPU_ReadMem(4 bytes @ 0xE0001000) -- CPU_WriteMem(4 bytes @ 0xE0001000) (0005ms, 0603ms total)
T32BC 000:876 JLINK_IsHalted() -- CPU_ReadMem(2 bytes @ 0x20000000)  returns TRUE (0005ms, 0608ms total)
T32BC 000:881 JLINK_ReadReg(R15 (PC))  returns 0x20000000 (0000ms, 0603ms total)
T32BC 000:881 JLINK_ClrBPEx(BPHandle = 0x0000000E)  returns 0x00 (0000ms, 0603ms total)
T32BC 000:881 JLINK_ReadReg(R0)  returns 0x00000001 (0000ms, 0603ms total)
T32BC 000:881 JLINK_WriteReg(R0, 0x08000300)  returns 0x00 (0000ms, 0603ms total)
T32BC 000:881 JLINK_WriteReg(R1, 0x00000080)  returns 0x00 (0000ms, 0603ms total)
T32BC 000:881 JLINK_WriteReg(R2, 0x00000000)  returns 0x00 (0000ms, 0603ms total)
T32BC 000:881 JLINK_WriteReg(R3, 0x00000000)  returns 0x00 (0000ms, 0603ms total)
T32BC 000:881 JLINK_WriteReg(R4, 0x00000000)  returns 0x00 (0000ms, 0603ms total)
T32BC 000:881 JLINK_WriteReg(R5, 0x00000000)  returns 0x00 (0000ms, 0603ms total)
T32BC 000:881 JLINK_WriteReg(R6, 0x00000000)  returns 0x00 (0000ms, 0603ms total)
T32BC 000:881 JLINK_WriteReg(R7, 0x00000000)  returns 0x00 (0000ms, 0603ms total)
T32BC 000:881 JLINK_WriteReg(R8, 0x00000000)  returns 0x00 (0000ms, 0603ms total)
T32BC 000:881 JLINK_WriteReg(R9, 0x2000013C)  returns 0x00 (0000ms, 0603ms total)
T32BC 000:881 JLINK_WriteReg(R10, 0x00000000)  returns 0x00 (0000ms, 0603ms total)
T32BC 000:881 JLINK_WriteReg(R11, 0x00000000)  returns 0x00 (0000ms, 0603ms total)
T32BC 000:881 JLINK_WriteReg(R12, 0x00000000)  returns 0x00 (0000ms, 0603ms total)
T32BC 000:881 JLINK_WriteReg(R13 (SP), 0x20001000)  returns 0x00 (0000ms, 0603ms total)
T32BC 000:881 JLINK_WriteReg(R14, 0x20000001)  returns 0x00 (0000ms, 0603ms total)
T32BC 000:881 JLINK_WriteReg(R15 (PC), 0x2000007A)  returns 0x00 (0000ms, 0603ms total)
T32BC 000:881 JLINK_WriteReg(XPSR, 0x01000000)  returns 0x00 (0000ms, 0603ms total)
T32BC 000:881 JLINK_WriteReg(MSP, 0x20001000)  returns 0x00 (0000ms, 0603ms total)
T32BC 000:881 JLINK_WriteReg(PSP, 0x20001000)  returns 0x00 (0000ms, 0603ms total)
T32BC 000:881 JLINK_WriteReg(CFBP, 0x00000000)  returns 0x00 (0000ms, 0603ms total)
T32BC 000:881 JLINK_SetBPEx(Addr = 0x20000000, Type = 0xFFFFFFF2)  returns 0x0000000F (0000ms, 0603ms total)
T32BC 000:881 JLINK_Go() -- CPU_ReadMem(4 bytes @ 0xE0001000) -- CPU_WriteMem(4 bytes @ 0xE0001000) (0003ms, 0606ms total)
T32BC 000:884 JLINK_IsHalted()  returns FALSE (0000ms, 0606ms total)
T32BC 000:889 JLINK_IsHalted() -- CPU_ReadMem(2 bytes @ 0x20000000)  returns TRUE (0004ms, 0610ms total)
T32BC 000:893 JLINK_ReadReg(R15 (PC))  returns 0x20000000 (0000ms, 0606ms total)
T32BC 000:893 JLINK_ClrBPEx(BPHandle = 0x0000000F)  returns 0x00 (0000ms, 0606ms total)
T32BC 000:893 JLINK_ReadReg(R0)  returns 0x00000000 (0000ms, 0606ms total)
T32BC 000:894 JLINK_WriteReg(R0, 0x08000380)  returns 0x00 (0000ms, 0606ms total)
T32BC 000:894 JLINK_WriteReg(R1, 0x00000080)  returns 0x00 (0000ms, 0606ms total)
T32BC 000:894 JLINK_WriteReg(R2, 0x00000000)  returns 0x00 (0000ms, 0606ms total)
T32BC 000:894 JLINK_WriteReg(R3, 0x00000000)  returns 0x00 (0000ms, 0606ms total)
T32BC 000:894 JLINK_WriteReg(R4, 0x00000000)  returns 0x00 (0000ms, 0606ms total)
T32BC 000:894 JLINK_WriteReg(R5, 0x00000000)  returns 0x00 (0000ms, 0606ms total)
T32BC 000:894 JLINK_WriteReg(R6, 0x00000000)  returns 0x00 (0000ms, 0606ms total)
T32BC 000:894 JLINK_WriteReg(R7, 0x00000000)  returns 0x00 (0000ms, 0606ms total)
T32BC 000:894 JLINK_WriteReg(R8, 0x00000000)  returns 0x00 (0000ms, 0606ms total)
T32BC 000:894 JLINK_WriteReg(R9, 0x2000013C)  returns 0x00 (0000ms, 0606ms total)
T32BC 000:894 JLINK_WriteReg(R10, 0x00000000)  returns 0x00 (0000ms, 0606ms total)
T32BC 000:894 JLINK_WriteReg(R11, 0x00000000)  returns 0x00 (0000ms, 0606ms total)
T32BC 000:894 JLINK_WriteReg(R12, 0x00000000)  returns 0x00 (0000ms, 0606ms total)
T32BC 000:894 JLINK_WriteReg(R13 (SP), 0x20001000)  returns 0x00 (0000ms, 0606ms total)
T32BC 000:894 JLINK_WriteReg(R14, 0x20000001)  returns 0x00 (0000ms, 0606ms total)
T32BC 000:894 JLINK_WriteReg(R15 (PC), 0x200000B0)  returns 0x00 (0000ms, 0606ms total)
T32BC 000:894 JLINK_WriteReg(XPSR, 0x01000000)  returns 0x00 (0000ms, 0606ms total)
T32BC 000:894 JLINK_WriteReg(MSP, 0x20001000)  returns 0x00 (0000ms, 0606ms total)
T32BC 000:894 JLINK_WriteReg(PSP, 0x20001000)  returns 0x00 (0000ms, 0606ms total)
T32BC 000:894 JLINK_WriteReg(CFBP, 0x00000000)  returns 0x00 (0000ms, 0606ms total)
T32BC 000:894 JLINK_SetBPEx(Addr = 0x20000000, Type = 0xFFFFFFF2)  returns 0x00000010 (0000ms, 0606ms total)
T32BC 000:894 JLINK_Go() -- CPU_ReadMem(4 bytes @ 0xE0001000) -- CPU_WriteMem(4 bytes @ 0xE0001000) (0003ms, 0609ms total)
T32BC 000:897 JLINK_IsHalted() -- CPU_ReadMem(2 bytes @ 0x20000000)  returns TRUE (0006ms, 0615ms total)
T32BC 000:903 JLINK_ReadReg(R15 (PC))  returns 0x20000000 (0000ms, 0609ms total)
T32BC 000:903 JLINK_ClrBPEx(BPHandle = 0x00000010)  returns 0x00 (0000ms, 0609ms total)
T32BC 000:903 JLINK_ReadReg(R0)  returns 0x00000001 (0000ms, 0609ms total)
T32BC 000:903 JLINK_WriteReg(R0, 0x08000380)  returns 0x00 (0000ms, 0609ms total)
T32BC 000:903 JLINK_WriteReg(R1, 0x00000080)  returns 0x00 (0000ms, 0609ms total)
T32BC 000:903 JLINK_WriteReg(R2, 0x00000000)  returns 0x00 (0000ms, 0609ms total)
T32BC 000:903 JLINK_WriteReg(R3, 0x00000000)  returns 0x00 (0000ms, 0609ms total)
T32BC 000:903 JLINK_WriteReg(R4, 0x00000000)  returns 0x00 (0000ms, 0609ms total)
T32BC 000:903 JLINK_WriteReg(R5, 0x00000000)  returns 0x00 (0000ms, 0609ms total)
T32BC 000:903 JLINK_WriteReg(R6, 0x00000000)  returns 0x00 (0000ms, 0609ms total)
T32BC 000:903 JLINK_WriteReg(R7, 0x00000000)  returns 0x00 (0000ms, 0609ms total)
T32BC 000:903 JLINK_WriteReg(R8, 0x00000000)  returns 0x00 (0000ms, 0609ms total)
T32BC 000:903 JLINK_WriteReg(R9, 0x2000013C)  returns 0x00 (0000ms, 0609ms total)
T32BC 000:903 JLINK_WriteReg(R10, 0x00000000)  returns 0x00 (0000ms, 0609ms total)
T32BC 000:903 JLINK_WriteReg(R11, 0x00000000)  returns 0x00 (0000ms, 0609ms total)
T32BC 000:903 JLINK_WriteReg(R12, 0x00000000)  returns 0x00 (0000ms, 0609ms total)
T32BC 000:903 JLINK_WriteReg(R13 (SP), 0x20001000)  returns 0x00 (0000ms, 0609ms total)
T32BC 000:903 JLINK_WriteReg(R14, 0x20000001)  returns 0x00 (0000ms, 0609ms total)
T32BC 000:903 JLINK_WriteReg(R15 (PC), 0x2000007A)  returns 0x00 (0000ms, 0609ms total)
T32BC 000:903 JLINK_WriteReg(XPSR, 0x01000000)  returns 0x00 (0000ms, 0609ms total)
T32BC 000:903 JLINK_WriteReg(MSP, 0x20001000)  returns 0x00 (0000ms, 0609ms total)
T32BC 000:903 JLINK_WriteReg(PSP, 0x20001000)  returns 0x00 (0000ms, 0609ms total)
T32BC 000:903 JLINK_WriteReg(CFBP, 0x00000000)  returns 0x00 (0000ms, 0609ms total)
T32BC 000:903 JLINK_SetBPEx(Addr = 0x20000000, Type = 0xFFFFFFF2)  returns 0x00000011 (0000ms, 0609ms total)
T32BC 000:903 JLINK_Go() -- CPU_ReadMem(4 bytes @ 0xE0001000) -- CPU_WriteMem(4 bytes @ 0xE0001000) (0004ms, 0613ms total)
T32BC 000:907 JLINK_IsHalted()  returns FALSE (0002ms, 0615ms total)
T32BC 000:914 JLINK_IsHalted() -- CPU_ReadMem(2 bytes @ 0x20000000)  returns TRUE (0005ms, 0618ms total)
T32BC 000:920 JLINK_ReadReg(R15 (PC))  returns 0x20000000 (0000ms, 0613ms total)
T32BC 000:920 JLINK_ClrBPEx(BPHandle = 0x00000011)  returns 0x00 (0000ms, 0613ms total)
T32BC 000:920 JLINK_ReadReg(R0)  returns 0x00000000 (0000ms, 0613ms total)
T32BC 000:920 JLINK_WriteReg(R0, 0x08000400)  returns 0x00 (0000ms, 0613ms total)
T32BC 000:920 JLINK_WriteReg(R1, 0x00000080)  returns 0x00 (0000ms, 0613ms total)
T32BC 000:920 JLINK_WriteReg(R2, 0x00000000)  returns 0x00 (0000ms, 0613ms total)
T32BC 000:920 JLINK_WriteReg(R3, 0x00000000)  returns 0x00 (0000ms, 0613ms total)
T32BC 000:920 JLINK_WriteReg(R4, 0x00000000)  returns 0x00 (0000ms, 0613ms total)
T32BC 000:920 JLINK_WriteReg(R5, 0x00000000)  returns 0x00 (0000ms, 0613ms total)
T32BC 000:920 JLINK_WriteReg(R6, 0x00000000)  returns 0x00 (0000ms, 0613ms total)
T32BC 000:920 JLINK_WriteReg(R7, 0x00000000)  returns 0x00 (0000ms, 0613ms total)
T32BC 000:920 JLINK_WriteReg(R8, 0x00000000)  returns 0x00 (0000ms, 0613ms total)
T32BC 000:920 JLINK_WriteReg(R9, 0x2000013C)  returns 0x00 (0000ms, 0613ms total)
T32BC 000:920 JLINK_WriteReg(R10, 0x00000000)  returns 0x00 (0000ms, 0613ms total)
T32BC 000:920 JLINK_WriteReg(R11, 0x00000000)  returns 0x00 (0000ms, 0613ms total)
T32BC 000:920 JLINK_WriteReg(R12, 0x00000000)  returns 0x00 (0000ms, 0613ms total)
T32BC 000:920 JLINK_WriteReg(R13 (SP), 0x20001000)  returns 0x00 (0000ms, 0613ms total)
T32BC 000:920 JLINK_WriteReg(R14, 0x20000001)  returns 0x00 (0000ms, 0613ms total)
T32BC 000:920 JLINK_WriteReg(R15 (PC), 0x200000B0)  returns 0x00 (0000ms, 0613ms total)
T32BC 000:920 JLINK_WriteReg(XPSR, 0x01000000)  returns 0x00 (0000ms, 0613ms total)
T32BC 000:920 JLINK_WriteReg(MSP, 0x20001000)  returns 0x00 (0000ms, 0613ms total)
T32BC 000:920 JLINK_WriteReg(PSP, 0x20001000)  returns 0x00 (0000ms, 0613ms total)
T32BC 000:920 JLINK_WriteReg(CFBP, 0x00000000)  returns 0x00 (0000ms, 0613ms total)
T32BC 000:920 JLINK_SetBPEx(Addr = 0x20000000, Type = 0xFFFFFFF2)  returns 0x00000012 (0000ms, 0613ms total)
T32BC 000:920 JLINK_Go() -- CPU_ReadMem(4 bytes @ 0xE0001000) -- CPU_WriteMem(4 bytes @ 0xE0001000) (0004ms, 0617ms total)
T32BC 000:924 JLINK_IsHalted() -- CPU_ReadMem(2 bytes @ 0x20000000)  returns TRUE (0006ms, 0623ms total)
T32BC 000:930 JLINK_ReadReg(R15 (PC))  returns 0x20000000 (0000ms, 0617ms total)
